[01Test1]
RequestMessage=01 01 00 00 00 01 FD CA
RequestByteNum=8
ReceiveMessage=01 01 01 00 51 88
ReceiveBytenum=6
Output=01 01 01 00 51 88

[01Test2]
RequestMessage=01 01 00 00 07 D0 3F A6
RequestByteNum=8
ReceiveMessage=01 01 FA 00 00 00 00 00 00 00 00 00 00 00 00 00 00 00 00 00 00 00 00 00 00 00 00 00 00 00 00 00 00 00 00 00 00 00 00 00 00 00 00 00 00 00 00 00 00 00 00 00 00 00 00 00 00 00 00 00 00 00 00 00 00 00 00 00 00 00 00 00 00 00 00 00 00 00 00 00 00 00 00 00 00 00 00 00 00 00 00 00 00 00 00 00 00 00 00 00 00 00 00 00 00 00 00 00 00 00 00 00 00 00 00 00 00 00 00 00 00 00 00 00 00 00 00 00 00 00 00 00 00 00 00 00 00 00 00 00 00 00 00 00 00 00 00 00 00 00 00 00 00 00 00 00 00 00 00 00 00 00 00 00 00 00 00 00 00 00 00 00 00 00 00 00 00 00 00 00 00 00 00 00 00 00 00 00 00 00 00 00 00 00 00 00 00 00 00 00 00 00 00 00 00 00 00 00 00 00 00 00 00 00 00 00 00 00 00 00 00 00 00 00 00 00 00 00 00 00 00 00 00 00 00 00 00 00 00 00 00 00 00 00 00 00 00 00 00 00 00 00 00 F5 AF
ReceiveBytenum=255
Output=01 01 FA 00 00 00 00 00 00 00 00 00 00 00 00 00 00 00 00 00 00 00 00 00 00 00 00 00 00 00 00 00 00 00 00 00 00 00 00 00 00 00 00 00 00 00 00 00 00 00 00 00 00 00 00 00 00 00 00 00 00 00 00 00 00 00 00 00 00 00 00 00 00 00 00 00 00 00 00 00 00 00 00 00 00 00 00 00 00 00 00 00 00 00 00 00 00 00 00 00 00 00 00 00 00 00 00 00 00 00 00 00 00 00 00 00 00 00 00 00 00 00 00 00 00 00 00 00 00 00 00 00 00 00 00 00 00 00 00 00 00 00 00 00 00 00 00 00 00 00 00 00 00 00 00 00 00 00 00 00 00 00 00 00 00 00 00 00 00 00 00 00 00 00 00 00 00 00 00 00 00 00 00 00 00 00 00 00 00 00 00 00 00 00 00 00 00 00 00 00 00 00 00 00 00 00 00 00 00 00 00 00 00 00 00 00 00 00 00 00 00 00 00 00 00 00 00 00 00 00 00 00 00 00 00 00 00 00 00 00 00 00 00 00 00 00 00 00 00 00 00 00 00 F5 AF

[01Test3]
RequestMessage=01 01 07 CF 00 01 CC 81
RequestByteNum=8
ReceiveMessage=01 01 01 00 51 88
ReceiveBytenum=6
Output=01 01 01 00 51 88

[01Test4]
RequestMessage=01 01 00 00 00 01 FD CA
RequestByteNum=8
ReceiveMessage=00 01 01 00 50 74
ReceiveBytenum=6
Output=

[01Test5]
RequestMessage=01 01 00 00 00 01 FD CA
RequestByteNum=8
ReceiveMessage=01 00 01 00 00 48
ReceiveBytenum=6
Output=

[01Test6]
RequestMessage=01 01 00 00 00 01 FD CA
RequestByteNum=8
ReceiveMessage=01 01 02 00 51 78
ReceiveBytenum=6
Output=

[01Test7]
RequestMessage=01 01 00 00 00 01 FD CA
RequestByteNum=8
ReceiveMessage=01 01 01 00 51 78
ReceiveBytenum=6
Output=

[01Test8]
RequestMessage=01 01 00 00 00 01 FD CA
RequestByteNum=8
ReceiveMessage=01 81 01 81 90
ReceiveBytenum=5
Output=01 81 01 81 90

[01Test9]
RequestMessage=01 01 00 00 00 01 FD CA
RequestByteNum=8
ReceiveMessage=01 81 02 C1 91
ReceiveBytenum=5
Output=01 81 02 C1 91

[01Test10]
RequestMessage=01 01 00 00 00 01 FD CA
RequestByteNum=8
ReceiveMessage=01 81 03 00 51
ReceiveBytenum=5
Output=01 81 03 00 51

[01Test11]
RequestMessage=01 01 00 00 00 01 FD CA
RequestByteNum=8
ReceiveMessage=01 81 04 41 93
ReceiveBytenum=5
Output=01 81 04 41 93

[01Test12]
RequestMessage=01 01 00 00 00 01 FD CA
RequestByteNum=8
ReceiveMessage=01 81 ff 00 10
ReceiveBytenum=5
Output=

[01Test13]
RequestMessage=01 01 00 00 00 08 3D CC
RequestByteNum=8
ReceiveMessage=01 01 01 11 91 84
ReceiveBytenum=6
Output=01 01 01 11 91 84

[01Test14]
RequestMessage=01 01 00 00 00 01 FD CA
RequestByteNum=8
ReceiveMessage=01 83 01 80 F0
ReceiveBytenum=5
Output=

[01Test15]
RequestMessage=01 01 00 00 00 01 FD CA
RequestByteNum=8
ReceiveMessage=
ReceiveBytenum=0
Output=

[01Test16]
RequestMessage=01 01 00 00 00 0A BC 0D
RequestByteNum=8
ReceiveMessage=01 01 02 11 00 B5 AC
ReceiveBytenum=7
Output=01 01 02 11 00 B5 AC


[03Test1]
RequestMessage=01 03 00 00 00 01 84 0A
RequestByteNum=8
ReceiveMessage=01 03 02 00 00 B8 44
ReceiveBytenum=7
Output=01 03 02 00 00 B8 44

[03Test2]
RequestMessage=01 03 00 00 00 7D 85 EB
RequestByteNum=8
ReceiveMessage=01 03 FA 00 00 00 00 00 00 00 00 00 00 00 00 00 00 00 00 00 00 00 00 00 00 00 00 00 00 00 00 00 00 00 00 00 00 00 00 00 00 00 00 00 00 00 00 00 00 00 00 00 00 00 00 00 00 00 00 00 00 00 00 00 00 00 00 00 00 00 00 00 00 00 00 00 00 00 00 00 00 00 00 00 00 00 00 00 00 00 00 00 00 00 00 00 00 00 00 00 00 00 00 00 00 00 00 00 00 00 00 00 00 00 00 00 00 00 00 00 00 00 00 00 00 00 00 00 00 00 00 00 00 00 00 00 00 00 00 00 00 00 00 00 00 00 00 00 00 00 00 00 00 00 00 00 00 00 00 00 00 00 00 00 00 00 00 00 00 00 00 00 00 00 00 00 00 00 00 00 00 00 00 00 00 00 00 00 00 00 00 00 00 00 00 00 00 00 00 00 00 00 00 00 00 00 00 00 00 00 00 00 00 00 00 00 00 00 00 00 00 00 00 00 00 00 00 00 00 00 00 00 00 00 00 00 00 00 00 00 00 00 00 00 00 00 00 00 00 00 00 00 00 08 E8
ReceiveBytenum=255
Output=01 03 FA 00 00 00 00 00 00 00 00 00 00 00 00 00 00 00 00 00 00 00 00 00 00 00 00 00 00 00 00 00 00 00 00 00 00 00 00 00 00 00 00 00 00 00 00 00 00 00 00 00 00 00 00 00 00 00 00 00 00 00 00 00 00 00 00 00 00 00 00 00 00 00 00 00 00 00 00 00 00 00 00 00 00 00 00 00 00 00 00 00 00 00 00 00 00 00 00 00 00 00 00 00 00 00 00 00 00 00 00 00 00 00 00 00 00 00 00 00 00 00 00 00 00 00 00 00 00 00 00 00 00 00 00 00 00 00 00 00 00 00 00 00 00 00 00 00 00 00 00 00 00 00 00 00 00 00 00 00 00 00 00 00 00 00 00 00 00 00 00 00 00 00 00 00 00 00 00 00 00 00 00 00 00 00 00 00 00 00 00 00 00 00 00 00 00 00 00 00 00 00 00 00 00 00 00 00 00 00 00 00 00 00 00 00 00 00 00 00 00 00 00 00 00 00 00 00 00 00 00 00 00 00 00 00 00 00 00 00 00 00 00 00 00 00 00 00 00 00 00 00 00 08 E8

[03Test3]
RequestMessage=01 03 00 7C 00 01 45 D2
RequestByteNum=8
ReceiveMessage=01 03 02 00 00 B8 44
ReceiveBytenum=7
Output=01 03 02 00 00 B8 44

[03Test4]
RequestMessage=01 03 00 00 00 01 84 0A
RequestByteNum=8
ReceiveMessage=00 03 02 00 00 85 84
ReceiveBytenum=7
Output=

[03Test5]
RequestMessage=01 03 00 00 00 01 84 0A
RequestByteNum=8
ReceiveMessage=01 03 02 00 00 B8 44 00
ReceiveBytenum=8
Output=

[03Test6]
RequestMessage=01 03 00 00 00 01 84 0A
RequestByteNum=8
ReceiveMessage=01 03 03 00 00 00 45 8E
ReceiveBytenum=8
Output=

[03Test7]
RequestMessage=01 03 00 00 00 01 84 0A
RequestByteNum=8
ReceiveMessage=01 03 01 00 00 48 44
ReceiveBytenum=7
Output=

[03Test8]
RequestMessage=01 03 00 00 00 01 84 0A
RequestByteNum=8
ReceiveMessage=01 83 01 00 F1 A0
ReceiveBytenum=6
Output=


[0fTest1]
RequestMessage=01 0F 00 00 00 01 01 00 2E 97
RequestByteNum=10
ReceiveMessage=01 0f 00 00 00 01 94 0B
ReceiveBytenum=8
Output=01 0f 00 00 00 01 94 0B

[0fTest2]
RequestMessage=01 0F 00 00 07 B0 F6 00 00 00 00 00 00 00 00 00 00 00 00 00 00 00 00 00 00 00 00 00 00 00 00 00 00 00 00 00 00 00 00 00 00 00 00 00 00 00 00 00 00 00 00 00 00 00 00 00 00 00 00 00 00 00 00 00 00 00 00 00 00 00 00 00 00 00 00 00 00 00 00 00 00 00 00 00 00 00 00 00 00 00 00 00 00 00 00 00 00 00 00 00 00 00 00 00 00 00 00 00 00 00 00 00 00 00 00 00 00 00 00 00 00 00 00 00 00 00 00 00 00 00 00 00 00 00 00 00 00 00 00 00 00 00 00 00 00 00 00 00 00 00 00 00 00 00 00 00 00 00 00 00 00 00 00 00 00 00 00 00 00 00 00 00 00 00 00 00 00 00 00 00 00 00 00 00 00 00 00 00 00 00 00 00 00 00 00 00 00 00 00 00 00 00 00 00 00 00 00 00 00 00 00 00 00 00 00 00 00 00 00 00 00 00 00 00 00 00 00 00 00 00 00 00 00 00 00 00 00 00 00 00 00 00 00 00 00 00 00 00 00 00 00 00 00 A6 FE
RequestByteNum=255
ReceiveMessage=01 0F 00 00 07 B0 56 4F
ReceiveBytenum=8
Output=01 0F 00 00 07 B0 56 4F

[0fTest3]
RequestMessage=01 0F 07 CF 00 01 01 00 7B 30
RequestByteNum=10
ReceiveMessage=01 0F 07 CF 00 01 A5 40
ReceiveBytenum=8
Output=01 0F 07 CF 00 01 A5 40

[0fTest4]
RequestMessage=01 0F 00 00 00 01 01 00 2E 97
RequestByteNum=10
ReceiveMessage=01 0F 40 24
ReceiveBytenum=4
Output=

[0fTest5]
RequestMessage=01 0F 00 00 00 01 01 00 2E 97
RequestByteNum=10
ReceiveMessage=01 0F 01 00 00 01 95 F7
ReceiveBytenum=8
Output=

[0fTest6]
RequestMessage=01 0F 00 00 00 01 01 00 2E 97
RequestByteNum=10
ReceiveMessage=01 00 00 00 00 01 C0 0A 
ReceiveBytenum=8
Output=

[0fTest7]
RequestMessage=01 0F 00 00 00 01 01 00 2E 97
RequestByteNum=10
ReceiveMessage=01 0F 00 00 00 02 D4 0A
ReceiveBytenum=8
Output=

[0fTest8]
RequestMessage=01 0F 00 00 00 01 01 00 2E 97
RequestByteNum=10
ReceiveMessage=01 0F 40 24
ReceiveBytenum=4
Output=


[10Test1]
RequestMessage=01 10 00 00 00 01 02 00 00 A6 50
RequestByteNum=11
ReceiveMessage=01 10 00 00 00 01 01 C9
ReceiveBytenum=8
Output=01 10 00 00 00 01 01 C9

[10Test2]
RequestMessage=01 10 00 00 00 7B F6 FE FE FE FE FE FE FE FE FE FE FE FE FE FE FE FE FE FE FE FE FE FE FE FE FE FE FE FE FE FE FE FE FE FE FE FE FE FE FE FE FE FE FE FE FE FE FE FE FE FE FE FE FE FE FE FE FE FE FE FE FE FE FE FE FE FE FE FE FE FE FE FE FE FE FE FE FE FE FE FE FE FE FE FE FE FE FE FE FE FE FE FE FE FE FE FE FE FE FE FE FE FE FE FE FE FE FE FE FE FE FE FE FE FE FE FE FE FE FE FE FE FE FE FE FE FE FE FE FE FE FE FE FE FE FE FE FE FE FE FE FE FE FE FE FE FE FE FE FE FE FE FE FE FE FE FE FE FE FE FE FE FE FE FE FE FE FE FE FE FE FE FE FE FE FE FE FE FE FE FE FE FE FE FE FE FE FE FE FE FE FE FE FE FE FE FE FE FE FE FE FE FE FE FE FE FE FE FE FE FE FE FE FE FE FE FE FE FE FE FE FE FE FE FE FE FE FE FE FE FE FE FE FE FE FE FE FE FE FE FE FE FE FE FE FE FE F2 3E
RequestByteNum=255
ReceiveMessage=01 10 00 00 00 7B 80 2A
ReceiveBytenum=8
Output=01 10 00 00 00 7B 80 2A

[10Test3]
RequestMessage=01 10 00 00 00 01 02 00 00 A6 50
RequestByteNum=11
ReceiveMessage=01 10 00 01 00 01 50 09
ReceiveBytenum=8
Output=

[10Test4]
RequestMessage=01 10 00 00 00 01 02 00 00 A6 50
RequestByteNum=11
ReceiveMessage=01 11 00 00 00 01 3C 09
ReceiveBytenum=8
Output=

[10Test5]
RequestMessage=01 10 00 00 00 01 02 00 00 A6 50
RequestByteNum=11
ReceiveMessage=01 10 00 00 00 02 41 C8
ReceiveBytenum=8
Output=

[10Test6]
RequestMessage=01 10 00 00 00 01 02 00 00 A6 50
RequestByteNum=11
ReceiveMessage=01 10 00 00 00 01 01 C9 00
ReceiveBytenum=9
Output=